T434C 000:025.533   SEGGER J-Link V7.82 Log File
T434C 000:025.632   DLL Compiled: Oct 13 2022 13:32:51
T434C 000:025.641   Logging started @ 2025-12-02 15:19
T434C 000:025.649 - 25.653ms
T434C 000:025.660 JLINK_SetWarnOutHandler(...)
T434C 000:025.669 - 0.012ms
T434C 000:025.677 JLINK_OpenEx(...)
T434C 000:029.927   Firmware: J-Link V9 compiled May  7 2021 16:26:12
T434C 000:030.358   Firmware: J-Link V9 compiled May  7 2021 16:26:12
T434C 000:030.473   Decompressing FW timestamp took 90 us
T434C 000:040.270   Hardware: V9.40
T434C 000:040.296   S/N: 69409253
T434C 000:040.308   OEM: SEGGER
T434C 000:040.321   Feature(s): RDI, GDB, FlashDL, FlashBP, JFlash
T434C 000:052.783   TELNET listener socket opened on port 19021
T434C 000:052.877   WEBSRV WEBSRV_Init(): Starting webserver thread(s)
T434C 000:052.935   WEBSRV Failed to put socket into listener state (port 19080)
T434C 000:052.984   WEBSRV Webserver running on local port 19081
T434C 000:057.088 - 31.423ms returns "O.K."
T434C 000:057.142 JLINK_GetEmuCaps()
T434C 000:057.151 - 0.012ms returns 0xB9FF7BBF
T434C 000:057.163 JLINK_TIF_GetAvailable(...)
T434C 000:059.358 - 2.205ms
T434C 000:059.390 JLINK_SetErrorOutHandler(...)
T434C 000:059.399 - 0.012ms
T434C 000:059.417 JLINK_ExecCommand("ProjectFile = "F:\ODRIVE_LWT\odrive_lwt_mdk\JLinkSettings.ini"", ...). 
T434C 000:067.411   Ref file found at: D:\Keil_v5\ARM\Segger\JLinkDevices.ref
T434C 000:067.531   REF file references invalid XML file: C:\Program Files\SEGGER\JLink_V890\JLinkDevices.xml
T434C 000:067.624 - 8.213ms returns 0x00
T434C 000:070.255 JLINK_ExecCommand("Device = STM32F405RGTx", ...). 
T434C 000:072.606   Device "STM32F405RG" selected.
T434C 000:072.901 - 2.632ms returns 0x00
T434C 000:072.916 JLINK_ExecCommand("DisableConnectionTimeout", ...). 
T434C 000:072.927 - 0.005ms returns 0x01
T434C 000:072.936 JLINK_GetHardwareVersion()
T434C 000:072.944 - 0.012ms returns 94000
T434C 000:072.956 JLINK_GetDLLVersion()
T434C 000:072.963 - 0.011ms returns 78200
T434C 000:072.971 JLINK_GetOEMString(...)
T434C 000:072.980 JLINK_GetFirmwareString(...)
T434C 000:072.987 - 0.011ms
T434C 000:076.889 JLINK_GetDLLVersion()
T434C 000:076.909 - 0.024ms returns 78200
T434C 000:076.918 JLINK_GetCompileDateTime()
T434C 000:076.930 - 0.016ms
T434C 000:078.262 JLINK_GetFirmwareString(...)
T434C 000:078.279 - 0.021ms
T434C 000:079.539 JLINK_GetHardwareVersion()
T434C 000:079.555 - 0.020ms returns 94000
T434C 000:080.758 JLINK_GetSN()
T434C 000:080.775 - 0.021ms returns 69409253
T434C 000:082.069 JLINK_GetOEMString(...)
T434C 000:084.625 JLINK_TIF_Select(JLINKARM_TIF_SWD)
T434C 000:094.043 - 9.434ms returns 0x00
T434C 000:094.081 JLINK_HasError()
T434C 000:094.098 JLINK_SetSpeed(5000)
T434C 000:094.233 - 0.140ms
T434C 000:094.253 JLINK_GetId()
T434C 000:102.238   InitTarget() start
T434C 000:102.268    J-Link Script File: Executing InitTarget()
T434C 000:114.227   InitTarget() end
T434C 000:116.342   Found SW-DP with ID 0x2BA01477
T434C 000:119.967   DPIDR: 0x2BA01477
T434C 000:121.405   CoreSight SoC-400 or earlier
T434C 000:122.915   Scanning AP map to find all available APs
T434C 000:124.832   AP[1]: Stopped AP scan as end of AP map has been reached
T434C 000:126.184   AP[0]: AHB-AP (IDR: 0x24770011)
T434C 000:127.635   Iterating through AP map to find AHB-AP to use
T434C 000:130.173   AP[0]: Core found
T434C 000:131.556   AP[0]: AHB-AP ROM base: 0xE00FF000
T434C 000:134.030   CPUID register: 0x410FC241. Implementer code: 0x41 (ARM)
T434C 000:135.411   Found Cortex-M4 r0p1, Little endian.
T434C 000:135.824   -- Max. mem block: 0x0000D368
T434C 000:138.231   CPU_ReadMem(4 bytes @ 0xE000EDF0)
T434C 000:138.609   CPU_ReadMem(4 bytes @ 0xE0002000)
T434C 000:140.326   FPUnit: 6 code (BP) slots and 2 literal slots
T434C 000:140.350   CPU_ReadMem(4 bytes @ 0xE000EDFC)
T434C 000:140.745   CPU_ReadMem(4 bytes @ 0xE0001000)
T434C 000:141.129   CPU_WriteMem(4 bytes @ 0xE0001000)
T434C 000:141.640   CPU_ReadMem(4 bytes @ 0xE000ED88)
T434C 000:141.964   CPU_WriteMem(4 bytes @ 0xE000ED88)
T434C 000:142.366   CPU_ReadMem(4 bytes @ 0xE000ED88)
T434C 000:142.760   CPU_WriteMem(4 bytes @ 0xE000ED88)
T434C 000:144.575   CoreSight components:
T434C 000:145.899   ROMTbl[0] @ E00FF000
T434C 000:145.923   CPU_ReadMem(64 bytes @ 0xE00FF000)
T434C 000:146.625   CPU_ReadMem(32 bytes @ 0xE000EFE0)
T434C 000:148.823   [0][0]: E000E000 CID B105E00D PID 000BB00C SCS-M7
T434C 000:148.847   CPU_ReadMem(32 bytes @ 0xE0001FE0)
T434C 000:150.727   [0][1]: E0001000 CID B105E00D PID 003BB002 DWT
T434C 000:150.751   CPU_ReadMem(32 bytes @ 0xE0002FE0)
T434C 000:153.148   [0][2]: E0002000 CID B105E00D PID 002BB003 FPB
T434C 000:153.172   CPU_ReadMem(32 bytes @ 0xE0000FE0)
T434C 000:155.364   [0][3]: E0000000 CID B105E00D PID 003BB001 ITM
T434C 000:155.390   CPU_ReadMem(32 bytes @ 0xE0040FE0)
T434C 000:157.337   [0][4]: E0040000 CID B105900D PID 000BB9A1 TPIU
T434C 000:157.361   CPU_ReadMem(32 bytes @ 0xE0041FE0)
T434C 000:159.411   [0][5]: E0041000 CID B105900D PID 000BB925 ETM
T434C 000:160.518 - 66.281ms returns 0x2BA01477
T434C 000:160.560 JLINK_GetDLLVersion()
T434C 000:160.572 - 0.016ms returns 78200
T434C 000:160.585 JLINK_CORE_GetFound()
T434C 000:160.593 - 0.012ms returns 0xE0000FF
T434C 000:160.604 JLINK_GetDebugInfo(0x100 = JLINKARM_ROM_TABLE_ADDR_INDEX)
T434C 000:160.616   Value=0xE00FF000
T434C 000:160.628 - 0.027ms returns 0
T434C 000:162.044 JLINK_GetDebugInfo(0x100 = JLINKARM_ROM_TABLE_ADDR_INDEX)
T434C 000:162.062   Value=0xE00FF000
T434C 000:162.074 - 0.034ms returns 0
T434C 000:162.084 JLINK_GetDebugInfo(0x101 = JLINKARM_DEBUG_INFO_ETM_ADDR_INDEX)
T434C 000:162.092   Value=0xE0041000
T434C 000:162.103 - 0.022ms returns 0
T434C 000:162.114 JLINK_ReadMemEx(0xE0041FD0, 0x20 Bytes, Flags = 0x02000004)
T434C 000:162.134   CPU_ReadMem(32 bytes @ 0xE0041FD0)
T434C 000:192.514   Data:  04 00 00 00 00 00 00 00 00 00 00 00 00 00 00 00 ...
T434C 000:192.541 - 30.431ms returns 32 (0x20)
T434C 000:192.572 JLINK_GetDebugInfo(0x102 = JLINKARM_DEBUG_INFO_MTB_ADDR_INDEX)
T434C 000:192.582   Value=0x00000000
T434C 000:192.593 - 0.024ms returns 0
T434C 000:192.603 JLINK_GetDebugInfo(0x103 = JLINKARM_DEBUG_INFO_TPIU_ADDR_INDEX)
T434C 000:192.611   Value=0xE0040000
T434C 000:192.623 - 0.023ms returns 0
T434C 000:192.633 JLINK_GetDebugInfo(0x104 = JLINKARM_DEBUG_INFO_ITM_ADDR_INDEX)
T434C 000:192.641   Value=0xE0000000
T434C 000:192.652 - 0.023ms returns 0
T434C 000:192.662 JLINK_GetDebugInfo(0x105 = JLINKARM_DEBUG_INFO_DWT_ADDR_INDEX)
T434C 000:192.670   Value=0xE0001000
T434C 000:192.681 - 0.023ms returns 0
T434C 000:192.692 JLINK_GetDebugInfo(0x106 = JLINKARM_DEBUG_INFO_FPB_ADDR_INDEX)
T434C 000:192.700   Value=0xE0002000
T434C 000:192.710 - 0.021ms returns 0
T434C 000:192.720 JLINK_GetDebugInfo(0x107 = JLINKARM_DEBUG_INFO_NVIC_ADDR_INDEX)
T434C 000:192.728   Value=0xE000E000
T434C 000:192.738 - 0.022ms returns 0
T434C 000:192.746 JLINK_GetDebugInfo(0x10C = JLINKARM_DEBUG_INFO_DBG_ADDR_INDEX)
T434C 000:192.754   Value=0xE000EDF0
T434C 000:192.764 - 0.021ms returns 0
T434C 000:192.772 JLINK_GetDebugInfo(0x01 = Unknown)
T434C 000:192.781   Value=0x00000001
T434C 000:192.792 - 0.022ms returns 0
T434C 000:192.800 JLINK_ReadMemU32(0xE000ED00, 0x1 Items)
T434C 000:192.814   CPU_ReadMem(4 bytes @ 0xE000ED00)
T434C 000:193.292   Data:  41 C2 0F 41
T434C 000:193.314   Debug reg: CPUID
T434C 000:193.325 - 0.529ms returns 1 (0x1)
T434C 000:193.360 JLINK_GetDebugInfo(0x10F = JLINKARM_DEBUG_INFO_HAS_CORTEX_M_SECURITY_EXT_INDEX)
T434C 000:193.370   Value=0x00000000
T434C 000:193.380 - 0.023ms returns 0
T434C 000:193.389 JLINK_HasError()
T434C 000:193.398 JLINK_SetResetType(JLINKARM_CM3_RESET_TYPE_NORMAL)
T434C 000:193.406 - 0.011ms returns JLINKARM_CM3_RESET_TYPE_NORMAL
T434C 000:193.414 JLINK_Reset()
T434C 000:196.733   CPU is running
T434C 000:196.760   CPU_WriteMem(4 bytes @ 0xE000EDF0)
T434C 000:197.138   CPU is running
T434C 000:197.158   CPU_WriteMem(4 bytes @ 0xE000EDFC)
T434C 000:199.230   Reset: Halt core after reset via DEMCR.VC_CORERESET.
T434C 000:204.346   Reset: Reset device via AIRCR.SYSRESETREQ.
T434C 000:204.371   CPU is running
T434C 000:204.386   CPU_WriteMem(4 bytes @ 0xE000ED0C)
T434C 000:258.359   CPU_ReadMem(4 bytes @ 0xE000EDF0)
T434C 000:258.724   CPU_ReadMem(4 bytes @ 0xE000EDF0)
T434C 000:259.156   CPU is running
T434C 000:259.169   CPU_WriteMem(4 bytes @ 0xE000EDF0)
T434C 000:259.644   CPU is running
T434C 000:259.656   CPU_WriteMem(4 bytes @ 0xE000EDFC)
T434C 000:265.276   CPU_ReadMem(4 bytes @ 0xE000EDF0)
T434C 000:268.367   CPU_WriteMem(4 bytes @ 0xE0002000)
T434C 000:268.746   CPU_ReadMem(4 bytes @ 0xE000EDFC)
T434C 000:269.118   CPU_ReadMem(4 bytes @ 0xE0001000)
T434C 000:269.528 - 76.120ms
T434C 000:269.557 JLINK_Halt()
T434C 000:269.566 - 0.013ms returns 0x00
T434C 000:269.577 JLINK_ReadMemU32(0xE000EDF0, 0x1 Items)
T434C 000:269.590   CPU_ReadMem(4 bytes @ 0xE000EDF0)
T434C 000:291.366   Data:  03 00 03 00
T434C 000:291.393   Debug reg: DHCSR
T434C 000:291.405 - 21.831ms returns 1 (0x1)
T434C 000:291.453 JLINK_WriteU32_64(0xE000EDF0, 0xA05F0003)
T434C 000:291.463   Debug reg: DHCSR
T434C 000:291.739   CPU_WriteMem(4 bytes @ 0xE000EDF0)
T434C 000:320.053 - 28.621ms returns 0 (0x00000000)
T434C 000:320.126 JLINK_WriteU32_64(0xE000EDFC, 0x01000000)
T434C 000:320.136   Debug reg: DEMCR
T434C 000:320.157   CPU_WriteMem(4 bytes @ 0xE000EDFC)
T434C 000:321.348 - 1.235ms returns 0 (0x00000000)
T434C 000:330.394 JLINK_GetHWStatus(...)
T434C 000:343.104 - 12.728ms returns 0
T434C 000:348.443 JLINK_GetNumBPUnits(Type = 0xFFFFFF00)
T434C 000:348.463 - 0.024ms returns 0x06
T434C 000:348.473 JLINK_GetNumBPUnits(Type = 0xF0)
T434C 000:348.481 - 0.012ms returns 0x2000
T434C 000:348.489 JLINK_GetNumWPUnits()
T434C 000:348.497 - 0.011ms returns 4
T434C 000:354.393 JLINK_GetSpeed()
T434C 000:354.414 - 0.025ms returns 4000
T434C 000:357.546 JLINK_ReadMemU32(0xE000E004, 0x1 Items)
T434C 000:357.579   CPU_ReadMem(4 bytes @ 0xE000E004)
T434C 000:375.802   Data:  02 00 00 00
T434C 000:375.831 - 18.289ms returns 1 (0x1)
T434C 000:375.880 JLINK_ReadMemU32(0xE000E004, 0x1 Items)
T434C 000:375.897   CPU_ReadMem(4 bytes @ 0xE000E004)
T434C 000:376.245   Data:  02 00 00 00
T434C 000:376.258 - 0.381ms returns 1 (0x1)
T434C 000:376.278 JLINK_WriteMemEx(0xE0001000, 0x0000001C Bytes, Flags = 0x02000004)
T434C 000:376.286   Data:  01 00 00 00 00 00 00 00 00 00 00 00 00 00 00 00 ...
T434C 000:376.303   CPU_WriteMem(28 bytes @ 0xE0001000)
T434C 000:376.862 - 0.593ms returns 0x1C
T434C 000:376.907 JLINK_Halt()
T434C 000:376.915 - 0.012ms returns 0x00
T434C 000:376.924 JLINK_IsHalted()
T434C 000:376.932 - 0.012ms returns TRUE
T434C 000:379.193 JLINK_WriteMem(0x20000000, 0x180 Bytes, ...)
T434C 000:379.207   Data:  00 BE 0A E0 0D 78 2D 06 68 40 08 24 40 00 00 D3 ...
T434C 000:379.477   CPU_WriteMem(384 bytes @ 0x20000000)
T434C 000:411.727 - 32.547ms returns 0x180
T434C 000:411.823 JLINK_HasError()
T434C 000:411.835 JLINK_WriteReg(R0, 0x08000000)
T434C 000:411.851 - 0.020ms returns 0
T434C 000:411.859 JLINK_WriteReg(R1, 0x00B71B00)
T434C 000:411.867 - 0.011ms returns 0
T434C 000:411.875 JLINK_WriteReg(R2, 0x00000001)
T434C 000:411.882 - 0.011ms returns 0
T434C 000:411.890 JLINK_WriteReg(R3, 0x00000000)
T434C 000:411.898 - 0.011ms returns 0
T434C 000:411.905 JLINK_WriteReg(R4, 0x00000000)
T434C 000:411.913 - 0.011ms returns 0
T434C 000:411.921 JLINK_WriteReg(R5, 0x00000000)
T434C 000:411.928 - 0.011ms returns 0
T434C 000:411.936 JLINK_WriteReg(R6, 0x00000000)
T434C 000:411.943 - 0.010ms returns 0
T434C 000:411.951 JLINK_WriteReg(R7, 0x00000000)
T434C 000:411.959 - 0.011ms returns 0
T434C 000:411.966 JLINK_WriteReg(R8, 0x00000000)
T434C 000:411.976 - 0.013ms returns 0
T434C 000:411.984 JLINK_WriteReg(R9, 0x2000017C)
T434C 000:411.991 - 0.010ms returns 0
T434C 000:411.999 JLINK_WriteReg(R10, 0x00000000)
T434C 000:412.007 - 0.011ms returns 0
T434C 000:412.014 JLINK_WriteReg(R11, 0x00000000)
T434C 000:412.022 - 0.010ms returns 0
T434C 000:412.029 JLINK_WriteReg(R12, 0x00000000)
T434C 000:412.037 - 0.014ms returns 0
T434C 000:412.049 JLINK_WriteReg(R13 (SP), 0x20001000)
T434C 000:412.058 - 0.012ms returns 0
T434C 000:412.066 JLINK_WriteReg(R14, 0x20000001)
T434C 000:412.073 - 0.011ms returns 0
T434C 000:412.081 JLINK_WriteReg(R15 (PC), 0x20000054)
T434C 000:412.090 - 0.012ms returns 0
T434C 000:412.098 JLINK_WriteReg(XPSR, 0x01000000)
T434C 000:412.105 - 0.011ms returns 0
T434C 000:412.113 JLINK_WriteReg(MSP, 0x20001000)
T434C 000:412.120 - 0.011ms returns 0
T434C 000:412.128 JLINK_WriteReg(PSP, 0x20001000)
T434C 000:412.136 - 0.011ms returns 0
T434C 000:412.144 JLINK_WriteReg(CFBP, 0x00000000)
T434C 000:412.151 - 0.011ms returns 0
T434C 000:412.159 JLINK_SetBPEx(Addr = 0x20000000, Type = 0xFFFFFFF2)
T434C 000:412.174   CPU_ReadMem(2 bytes @ 0x20000000)
T434C 000:412.673 - 0.519ms returns 0x00000001
T434C 000:412.692 JLINK_Go()
T434C 000:412.703   CPU_WriteMem(2 bytes @ 0x20000000)
T434C 000:413.089   CPU_ReadMem(4 bytes @ 0xE0001000)
T434C 000:413.461   CPU_WriteMem(4 bytes @ 0xE0002008)
T434C 000:413.473   CPU_WriteMem(4 bytes @ 0xE000200C)
T434C 000:413.484   CPU_WriteMem(4 bytes @ 0xE0002010)
T434C 000:413.495   CPU_WriteMem(4 bytes @ 0xE0002014)
T434C 000:413.511   CPU_WriteMem(4 bytes @ 0xE0002018)
T434C 000:413.522   CPU_WriteMem(4 bytes @ 0xE000201C)
T434C 000:415.861   CPU_WriteMem(4 bytes @ 0xE0001004)
T434C 000:426.835 - 14.156ms
T434C 000:426.867 JLINK_IsHalted()
T434C 000:432.801   CPU_ReadMem(2 bytes @ 0x20000000)
T434C 000:433.246 - 6.383ms returns TRUE
T434C 000:433.266 JLINK_ReadReg(R15 (PC))
T434C 000:433.278 - 0.015ms returns 0x20000000
T434C 000:433.287 JLINK_ClrBPEx(BPHandle = 0x00000001)
T434C 000:433.295 - 0.013ms returns 0x00
T434C 000:433.310 JLINK_ReadReg(R0)
T434C 000:433.317 - 0.011ms returns 0x00000000
T434C 000:433.710 JLINK_HasError()
T434C 000:433.732 JLINK_WriteReg(R0, 0x08000000)
T434C 000:433.744 - 0.015ms returns 0
T434C 000:433.753 JLINK_WriteReg(R1, 0x00004000)
T434C 000:433.761 - 0.011ms returns 0
T434C 000:433.768 JLINK_WriteReg(R2, 0x000000FF)
T434C 000:433.776 - 0.011ms returns 0
T434C 000:433.784 JLINK_WriteReg(R3, 0x00000000)
T434C 000:433.792 - 0.011ms returns 0
T434C 000:433.800 JLINK_WriteReg(R4, 0x00000000)
T434C 000:433.807 - 0.011ms returns 0
T434C 000:433.815 JLINK_WriteReg(R5, 0x00000000)
T434C 000:433.823 - 0.011ms returns 0
T434C 000:433.830 JLINK_WriteReg(R6, 0x00000000)
T434C 000:433.838 - 0.011ms returns 0
T434C 000:433.846 JLINK_WriteReg(R7, 0x00000000)
T434C 000:433.853 - 0.011ms returns 0
T434C 000:433.861 JLINK_WriteReg(R8, 0x00000000)
T434C 000:433.869 - 0.011ms returns 0
T434C 000:433.877 JLINK_WriteReg(R9, 0x2000017C)
T434C 000:433.884 - 0.010ms returns 0
T434C 000:433.892 JLINK_WriteReg(R10, 0x00000000)
T434C 000:433.899 - 0.011ms returns 0
T434C 000:433.907 JLINK_WriteReg(R11, 0x00000000)
T434C 000:433.915 - 0.010ms returns 0
T434C 000:433.922 JLINK_WriteReg(R12, 0x00000000)
T434C 000:433.930 - 0.011ms returns 0
T434C 000:433.938 JLINK_WriteReg(R13 (SP), 0x20001000)
T434C 000:433.946 - 0.011ms returns 0
T434C 000:433.954 JLINK_WriteReg(R14, 0x20000001)
T434C 000:433.961 - 0.011ms returns 0
T434C 000:433.969 JLINK_WriteReg(R15 (PC), 0x20000020)
T434C 000:433.977 - 0.011ms returns 0
T434C 000:433.985 JLINK_WriteReg(XPSR, 0x01000000)
T434C 000:433.992 - 0.011ms returns 0
T434C 000:434.000 JLINK_WriteReg(MSP, 0x20001000)
T434C 000:434.008 - 0.011ms returns 0
T434C 000:434.016 JLINK_WriteReg(PSP, 0x20001000)
T434C 000:434.023 - 0.011ms returns 0
T434C 000:434.031 JLINK_WriteReg(CFBP, 0x00000000)
T434C 000:434.039 - 0.011ms returns 0
T434C 000:434.047 JLINK_SetBPEx(Addr = 0x20000000, Type = 0xFFFFFFF2)
T434C 000:434.056 - 0.012ms returns 0x00000002
T434C 000:434.064 JLINK_Go()
T434C 000:434.079   CPU_ReadMem(4 bytes @ 0xE0001000)
T434C 000:441.284 - 7.235ms
T434C 000:441.325 JLINK_IsHalted()
T434C 000:441.658 - 0.338ms returns FALSE
T434C 000:441.680 JLINK_HasError()
T434C 000:467.317 JLINK_IsHalted()
T434C 000:505.778   CPU_ReadMem(2 bytes @ 0x20000000)
T434C 000:506.258 - 38.994ms returns TRUE
T434C 000:506.349 JLINK_ReadReg(R15 (PC))
T434C 000:506.360 - 0.015ms returns 0x20000000
T434C 000:506.371 JLINK_ClrBPEx(BPHandle = 0x00000002)
T434C 000:506.379 - 0.012ms returns 0x00
T434C 000:506.390 JLINK_ReadReg(R0)
T434C 000:506.398 - 0.011ms returns 0x00000000
T434C 000:506.866 JLINK_HasError()
T434C 000:506.882 JLINK_WriteReg(R0, 0x08004000)
T434C 000:506.891 - 0.013ms returns 0
T434C 000:506.900 JLINK_WriteReg(R1, 0x00004000)
T434C 000:506.907 - 0.011ms returns 0
T434C 000:506.915 JLINK_WriteReg(R2, 0x000000FF)
T434C 000:506.923 - 0.011ms returns 0
T434C 000:506.931 JLINK_WriteReg(R3, 0x00000000)
T434C 000:506.938 - 0.011ms returns 0
T434C 000:506.946 JLINK_WriteReg(R4, 0x00000000)
T434C 000:506.953 - 0.011ms returns 0
T434C 000:506.961 JLINK_WriteReg(R5, 0x00000000)
T434C 000:506.968 - 0.010ms returns 0
T434C 000:506.976 JLINK_WriteReg(R6, 0x00000000)
T434C 000:506.988 - 0.015ms returns 0
T434C 000:506.996 JLINK_WriteReg(R7, 0x00000000)
T434C 000:507.004 - 0.011ms returns 0
T434C 000:507.012 JLINK_WriteReg(R8, 0x00000000)
T434C 000:507.019 - 0.011ms returns 0
T434C 000:507.027 JLINK_WriteReg(R9, 0x2000017C)
T434C 000:507.034 - 0.010ms returns 0
T434C 000:507.042 JLINK_WriteReg(R10, 0x00000000)
T434C 000:507.049 - 0.011ms returns 0
T434C 000:507.057 JLINK_WriteReg(R11, 0x00000000)
T434C 000:507.065 - 0.011ms returns 0
T434C 000:507.073 JLINK_WriteReg(R12, 0x00000000)
T434C 000:507.080 - 0.010ms returns 0
T434C 000:507.088 JLINK_WriteReg(R13 (SP), 0x20001000)
T434C 000:507.095 - 0.011ms returns 0
T434C 000:507.103 JLINK_WriteReg(R14, 0x20000001)
T434C 000:507.111 - 0.010ms returns 0
T434C 000:507.118 JLINK_WriteReg(R15 (PC), 0x20000020)
T434C 000:507.126 - 0.011ms returns 0
T434C 000:507.133 JLINK_WriteReg(XPSR, 0x01000000)
T434C 000:507.141 - 0.011ms returns 0
T434C 000:507.149 JLINK_WriteReg(MSP, 0x20001000)
T434C 000:507.156 - 0.010ms returns 0
T434C 000:507.164 JLINK_WriteReg(PSP, 0x20001000)
T434C 000:507.171 - 0.010ms returns 0
T434C 000:507.179 JLINK_WriteReg(CFBP, 0x00000000)
T434C 000:507.186 - 0.011ms returns 0
T434C 000:507.195 JLINK_SetBPEx(Addr = 0x20000000, Type = 0xFFFFFFF2)
T434C 000:507.203 - 0.012ms returns 0x00000003
T434C 000:507.211 JLINK_Go()
T434C 000:507.226   CPU_ReadMem(4 bytes @ 0xE0001000)
T434C 000:532.998 - 25.806ms
T434C 000:533.040 JLINK_IsHalted()
T434C 000:534.685 - 1.649ms returns FALSE
T434C 000:534.706 JLINK_HasError()
T434C 000:542.329 JLINK_IsHalted()
T434C 000:543.070 - 0.756ms returns FALSE
T434C 000:543.121 JLINK_HasError()
T434C 000:544.326 JLINK_IsHalted()
T434C 000:545.818 - 1.497ms returns FALSE
T434C 000:545.839 JLINK_HasError()
T434C 000:547.344 JLINK_IsHalted()
T434C 000:550.369   CPU_ReadMem(2 bytes @ 0x20000000)
T434C 000:550.925 - 3.586ms returns TRUE
T434C 000:550.944 JLINK_ReadReg(R15 (PC))
T434C 000:550.955 - 0.014ms returns 0x20000000
T434C 000:550.963 JLINK_ClrBPEx(BPHandle = 0x00000003)
T434C 000:550.972 - 0.012ms returns 0x00
T434C 000:550.980 JLINK_ReadReg(R0)
T434C 000:550.989 - 0.012ms returns 0x00000000
T434C 000:551.400 JLINK_HasError()
T434C 000:551.416 JLINK_WriteReg(R0, 0x08008000)
T434C 000:551.426 - 0.014ms returns 0
T434C 000:551.435 JLINK_WriteReg(R1, 0x00004000)
T434C 000:551.443 - 0.011ms returns 0
T434C 000:551.451 JLINK_WriteReg(R2, 0x000000FF)
T434C 000:551.459 - 0.011ms returns 0
T434C 000:551.467 JLINK_WriteReg(R3, 0x00000000)
T434C 000:551.475 - 0.011ms returns 0
T434C 000:551.483 JLINK_WriteReg(R4, 0x00000000)
T434C 000:551.491 - 0.011ms returns 0
T434C 000:551.499 JLINK_WriteReg(R5, 0x00000000)
T434C 000:551.507 - 0.011ms returns 0
T434C 000:551.515 JLINK_WriteReg(R6, 0x00000000)
T434C 000:551.522 - 0.011ms returns 0
T434C 000:551.530 JLINK_WriteReg(R7, 0x00000000)
T434C 000:551.538 - 0.011ms returns 0
T434C 000:551.546 JLINK_WriteReg(R8, 0x00000000)
T434C 000:551.554 - 0.011ms returns 0
T434C 000:551.562 JLINK_WriteReg(R9, 0x2000017C)
T434C 000:551.570 - 0.011ms returns 0
T434C 000:551.578 JLINK_WriteReg(R10, 0x00000000)
T434C 000:551.590 - 0.016ms returns 0
T434C 000:551.599 JLINK_WriteReg(R11, 0x00000000)
T434C 000:551.608 - 0.012ms returns 0
T434C 000:551.617 JLINK_WriteReg(R12, 0x00000000)
T434C 000:551.625 - 0.011ms returns 0
T434C 000:551.633 JLINK_WriteReg(R13 (SP), 0x20001000)
T434C 000:551.641 - 0.012ms returns 0
T434C 000:551.649 JLINK_WriteReg(R14, 0x20000001)
T434C 000:551.657 - 0.011ms returns 0
T434C 000:551.665 JLINK_WriteReg(R15 (PC), 0x20000020)
T434C 000:551.673 - 0.011ms returns 0
T434C 000:551.682 JLINK_WriteReg(XPSR, 0x01000000)
T434C 000:551.690 - 0.012ms returns 0
T434C 000:551.698 JLINK_WriteReg(MSP, 0x20001000)
T434C 000:551.706 - 0.011ms returns 0
T434C 000:551.714 JLINK_WriteReg(PSP, 0x20001000)
T434C 000:551.722 - 0.011ms returns 0
T434C 000:551.730 JLINK_WriteReg(CFBP, 0x00000000)
T434C 000:551.738 - 0.011ms returns 0
T434C 000:551.746 JLINK_SetBPEx(Addr = 0x20000000, Type = 0xFFFFFFF2)
T434C 000:551.755 - 0.012ms returns 0x00000004
T434C 000:551.763 JLINK_Go()
T434C 000:551.777   CPU_ReadMem(4 bytes @ 0xE0001000)
T434C 000:555.819 - 4.070ms
T434C 000:555.850 JLINK_IsHalted()
T434C 000:556.289 - 0.452ms returns FALSE
T434C 000:556.330 JLINK_HasError()
T434C 000:559.843 JLINK_IsHalted()
T434C 000:575.948   CPU_ReadMem(2 bytes @ 0x20000000)
T434C 000:576.961 - 17.128ms returns TRUE
T434C 000:577.001 JLINK_ReadReg(R15 (PC))
T434C 000:577.013 - 0.016ms returns 0x20000000
T434C 000:577.024 JLINK_ClrBPEx(BPHandle = 0x00000004)
T434C 000:577.033 - 0.012ms returns 0x00
T434C 000:577.043 JLINK_ReadReg(R0)
T434C 000:577.052 - 0.011ms returns 0x00000000
T434C 000:577.733 JLINK_HasError()
T434C 000:577.751 JLINK_WriteReg(R0, 0x0800C000)
T434C 000:577.762 - 0.014ms returns 0
T434C 000:577.771 JLINK_WriteReg(R1, 0x00004000)
T434C 000:577.779 - 0.012ms returns 0
T434C 000:577.787 JLINK_WriteReg(R2, 0x000000FF)
T434C 000:577.795 - 0.011ms returns 0
T434C 000:577.803 JLINK_WriteReg(R3, 0x00000000)
T434C 000:577.811 - 0.011ms returns 0
T434C 000:577.818 JLINK_WriteReg(R4, 0x00000000)
T434C 000:577.826 - 0.011ms returns 0
T434C 000:577.834 JLINK_WriteReg(R5, 0x00000000)
T434C 000:577.842 - 0.011ms returns 0
T434C 000:577.850 JLINK_WriteReg(R6, 0x00000000)
T434C 000:577.858 - 0.011ms returns 0
T434C 000:577.866 JLINK_WriteReg(R7, 0x00000000)
T434C 000:577.874 - 0.011ms returns 0
T434C 000:577.882 JLINK_WriteReg(R8, 0x00000000)
T434C 000:577.889 - 0.011ms returns 0
T434C 000:577.897 JLINK_WriteReg(R9, 0x2000017C)
T434C 000:577.905 - 0.011ms returns 0
T434C 000:577.913 JLINK_WriteReg(R10, 0x00000000)
T434C 000:577.920 - 0.011ms returns 0
T434C 000:577.928 JLINK_WriteReg(R11, 0x00000000)
T434C 000:577.936 - 0.011ms returns 0
T434C 000:577.944 JLINK_WriteReg(R12, 0x00000000)
T434C 000:577.951 - 0.011ms returns 0
T434C 000:577.959 JLINK_WriteReg(R13 (SP), 0x20001000)
T434C 000:577.967 - 0.011ms returns 0
T434C 000:577.975 JLINK_WriteReg(R14, 0x20000001)
T434C 000:577.983 - 0.011ms returns 0
T434C 000:577.991 JLINK_WriteReg(R15 (PC), 0x20000020)
T434C 000:577.998 - 0.011ms returns 0
T434C 000:578.006 JLINK_WriteReg(XPSR, 0x01000000)
T434C 000:578.014 - 0.011ms returns 0
T434C 000:578.022 JLINK_WriteReg(MSP, 0x20001000)
T434C 000:578.030 - 0.011ms returns 0
T434C 000:578.038 JLINK_WriteReg(PSP, 0x20001000)
T434C 000:578.046 - 0.011ms returns 0
T434C 000:578.054 JLINK_WriteReg(CFBP, 0x00000000)
T434C 000:578.062 - 0.011ms returns 0
T434C 000:578.070 JLINK_SetBPEx(Addr = 0x20000000, Type = 0xFFFFFFF2)
T434C 000:578.079 - 0.012ms returns 0x00000005
T434C 000:578.087 JLINK_Go()
T434C 000:578.101   CPU_ReadMem(4 bytes @ 0xE0001000)
T434C 000:635.819 - 57.753ms
T434C 000:635.864 JLINK_IsHalted()
T434C 000:639.697   CPU_ReadMem(2 bytes @ 0x20000000)
T434C 000:640.055 - 4.196ms returns TRUE
T434C 000:640.080 JLINK_ReadReg(R15 (PC))
T434C 000:640.091 - 0.015ms returns 0x20000000
T434C 000:640.102 JLINK_ClrBPEx(BPHandle = 0x00000005)
T434C 000:640.111 - 0.012ms returns 0x00
T434C 000:640.121 JLINK_ReadReg(R0)
T434C 000:640.129 - 0.011ms returns 0x00000001
T434C 000:640.143 JLINK_HasError()
T434C 000:640.156 JLINK_WriteReg(R0, 0x0800C000)
T434C 000:640.166 - 0.013ms returns 0
T434C 000:640.176 JLINK_WriteReg(R1, 0x00004000)
T434C 000:640.184 - 0.012ms returns 0
T434C 000:640.194 JLINK_WriteReg(R2, 0x000000FF)
T434C 000:640.202 - 0.011ms returns 0
T434C 000:640.212 JLINK_WriteReg(R3, 0x00000000)
T434C 000:640.220 - 0.011ms returns 0
T434C 000:640.230 JLINK_WriteReg(R4, 0x00000000)
T434C 000:640.238 - 0.011ms returns 0
T434C 000:640.248 JLINK_WriteReg(R5, 0x00000000)
T434C 000:640.257 - 0.012ms returns 0
T434C 000:640.267 JLINK_WriteReg(R6, 0x00000000)
T434C 000:640.275 - 0.012ms returns 0
T434C 000:640.285 JLINK_WriteReg(R7, 0x00000000)
T434C 000:640.293 - 0.011ms returns 0
T434C 000:640.303 JLINK_WriteReg(R8, 0x00000000)
T434C 000:640.311 - 0.012ms returns 0
T434C 000:640.321 JLINK_WriteReg(R9, 0x2000017C)
T434C 000:640.329 - 0.011ms returns 0
T434C 000:640.339 JLINK_WriteReg(R10, 0x00000000)
T434C 000:640.347 - 0.011ms returns 0
T434C 000:640.355 JLINK_WriteReg(R11, 0x00000000)
T434C 000:640.363 - 0.011ms returns 0
T434C 000:640.371 JLINK_WriteReg(R12, 0x00000000)
T434C 000:640.378 - 0.011ms returns 0
T434C 000:640.386 JLINK_WriteReg(R13 (SP), 0x20001000)
T434C 000:640.394 - 0.011ms returns 0
T434C 000:640.404 JLINK_WriteReg(R14, 0x20000001)
T434C 000:640.412 - 0.012ms returns 0
T434C 000:640.423 JLINK_WriteReg(R15 (PC), 0x200000BC)
T434C 000:640.431 - 0.012ms returns 0
T434C 000:640.441 JLINK_WriteReg(XPSR, 0x01000000)
T434C 000:640.449 - 0.011ms returns 0
T434C 000:640.459 JLINK_WriteReg(MSP, 0x20001000)
T434C 000:640.467 - 0.011ms returns 0
T434C 000:640.475 JLINK_WriteReg(PSP, 0x20001000)
T434C 000:640.483 - 0.011ms returns 0
T434C 000:640.491 JLINK_WriteReg(CFBP, 0x00000000)
T434C 000:640.499 - 0.011ms returns 0
T434C 000:640.508 JLINK_SetBPEx(Addr = 0x20000000, Type = 0xFFFFFFF2)
T434C 000:640.517 - 0.012ms returns 0x00000006
T434C 000:640.525 JLINK_Go()
T434C 000:640.538   CPU_ReadMem(4 bytes @ 0xE0001000)
T434C 000:646.853 - 6.339ms
T434C 000:646.883 JLINK_IsHalted()
T434C 000:649.157 - 2.293ms returns FALSE
T434C 000:649.211 JLINK_HasError()
T434C 000:658.856 JLINK_IsHalted()
T434C 000:673.459 - 14.619ms returns FALSE
T434C 000:673.507 JLINK_HasError()
T434C 000:677.856 JLINK_IsHalted()
T434C 000:850.841 - 173.008ms returns FALSE
T434C 000:850.921 JLINK_HasError()
T434C 000:858.941 JLINK_IsHalted()
T434C 000:859.934 - 0.999ms returns FALSE
T434C 000:859.958 JLINK_HasError()
T434C 000:861.940 JLINK_IsHalted()
T434C 000:862.388 - 0.453ms returns FALSE
T434C 000:862.408 JLINK_HasError()
T434C 000:863.939 JLINK_IsHalted()
T434C 000:864.418 - 0.483ms returns FALSE
T434C 000:864.436 JLINK_HasError()
T434C 000:865.950 JLINK_IsHalted()
T434C 000:866.621 - 0.675ms returns FALSE
T434C 000:866.640 JLINK_HasError()
T434C 000:868.952 JLINK_IsHalted()
T434C 000:869.740 - 0.794ms returns FALSE
T434C 000:869.761 JLINK_HasError()
T434C 000:870.941 JLINK_IsHalted()
T434C 000:871.379 - 0.443ms returns FALSE
T434C 000:871.399 JLINK_HasError()
T434C 000:872.951 JLINK_IsHalted()
T434C 000:875.177 - 2.233ms returns FALSE
T434C 000:875.201 JLINK_HasError()
T434C 000:876.946 JLINK_IsHalted()
T434C 000:877.547 - 0.606ms returns FALSE
T434C 000:877.568 JLINK_HasError()
T434C 000:878.940 JLINK_IsHalted()
T434C 000:879.332 - 0.397ms returns FALSE
T434C 000:879.351 JLINK_HasError()
T434C 000:880.941 JLINK_IsHalted()
T434C 000:883.838 - 2.901ms returns FALSE
T434C 000:883.856 JLINK_HasError()
T434C 000:884.972 JLINK_IsHalted()
T434C 000:885.462 - 0.496ms returns FALSE
T434C 000:885.481 JLINK_HasError()
T434C 000:886.940 JLINK_IsHalted()
T434C 000:888.752 - 1.824ms returns FALSE
T434C 000:888.787 JLINK_HasError()
T434C 000:890.945 JLINK_IsHalted()
T434C 000:910.959 - 20.036ms returns FALSE
T434C 000:911.026 JLINK_HasError()
T434C 000:915.993 JLINK_IsHalted()
T434C 000:916.512 - 0.533ms returns FALSE
T434C 000:916.558 JLINK_HasError()
T434C 000:917.950 JLINK_IsHalted()
T434C 000:918.384 - 0.452ms returns FALSE
T434C 000:918.435 JLINK_HasError()
T434C 000:919.964 JLINK_IsHalted()
T434C 000:920.667 - 0.709ms returns FALSE
T434C 000:920.693 JLINK_HasError()
T434C 000:921.992 JLINK_IsHalted()
T434C 000:927.502 - 5.524ms returns FALSE
T434C 000:927.547 JLINK_HasError()
T434C 000:929.944 JLINK_IsHalted()
T434C 000:930.341 - 0.402ms returns FALSE
T434C 000:930.363 JLINK_HasError()
T434C 000:931.940 JLINK_IsHalted()
T434C 000:932.333 - 0.398ms returns FALSE
T434C 000:932.351 JLINK_HasError()
T434C 000:933.943 JLINK_IsHalted()
T434C 000:934.275 - 0.336ms returns FALSE
T434C 000:934.293 JLINK_HasError()
T434C 000:935.946 JLINK_IsHalted()
T434C 000:954.325 - 18.399ms returns FALSE
T434C 000:954.401 JLINK_HasError()
T434C 000:959.520 JLINK_IsHalted()
T434C 000:960.034 - 0.527ms returns FALSE
T434C 000:960.083 JLINK_HasError()
T434C 000:961.513 JLINK_IsHalted()
T434C 000:963.485 - 1.987ms returns FALSE
T434C 000:963.529 JLINK_HasError()
T434C 000:965.468 JLINK_IsHalted()
T434C 000:968.572 - 3.109ms returns FALSE
T434C 000:968.591 JLINK_HasError()
T434C 000:970.464 JLINK_IsHalted()
T434C 000:970.875 - 0.421ms returns FALSE
T434C 000:970.908 JLINK_HasError()
T434C 000:972.469 JLINK_IsHalted()
T434C 000:973.007 - 0.543ms returns FALSE
T434C 000:973.025 JLINK_HasError()
T434C 000:975.466 JLINK_IsHalted()
T434C 000:992.692 - 17.238ms returns FALSE
T434C 000:992.738 JLINK_HasError()
T434C 000:997.486 JLINK_IsHalted()
T434C 000:997.952 - 0.472ms returns FALSE
T434C 000:997.975 JLINK_HasError()
T434C 000:999.466 JLINK_IsHalted()
T434C 000:999.860 - 0.407ms returns FALSE
T434C 000:999.901 JLINK_HasError()
T434C 001:001.467 JLINK_IsHalted()
T434C 001:001.940 - 0.478ms returns FALSE
T434C 001:001.959 JLINK_HasError()
T434C 001:003.463 JLINK_IsHalted()
T434C 001:006.962 - 3.505ms returns FALSE
T434C 001:006.983 JLINK_HasError()
T434C 001:008.467 JLINK_IsHalted()
T434C 001:008.820 - 0.358ms returns FALSE
T434C 001:008.838 JLINK_HasError()
T434C 001:010.476 JLINK_IsHalted()
T434C 001:013.546   CPU_ReadMem(2 bytes @ 0x20000000)
T434C 001:013.887 - 3.415ms returns TRUE
T434C 001:013.906 JLINK_ReadReg(R15 (PC))
T434C 001:013.916 - 0.014ms returns 0x20000000
T434C 001:013.924 JLINK_ClrBPEx(BPHandle = 0x00000006)
T434C 001:013.933 - 0.012ms returns 0x00
T434C 001:013.941 JLINK_ReadReg(R0)
T434C 001:013.949 - 0.012ms returns 0x00000000
T434C 001:014.288 JLINK_HasError()
T434C 001:014.302 JLINK_WriteReg(R0, 0x00000001)
T434C 001:014.313 - 0.014ms returns 0
T434C 001:014.321 JLINK_WriteReg(R1, 0x00004000)
T434C 001:014.329 - 0.011ms returns 0
T434C 001:014.338 JLINK_WriteReg(R2, 0x000000FF)
T434C 001:014.346 - 0.012ms returns 0
T434C 001:014.354 JLINK_WriteReg(R3, 0x00000000)
T434C 001:014.362 - 0.011ms returns 0
T434C 001:014.370 JLINK_WriteReg(R4, 0x00000000)
T434C 001:014.378 - 0.011ms returns 0
T434C 001:014.386 JLINK_WriteReg(R5, 0x00000000)
T434C 001:014.394 - 0.011ms returns 0
T434C 001:014.403 JLINK_WriteReg(R6, 0x00000000)
T434C 001:014.410 - 0.011ms returns 0
T434C 001:014.418 JLINK_WriteReg(R7, 0x00000000)
T434C 001:014.426 - 0.011ms returns 0
T434C 001:014.434 JLINK_WriteReg(R8, 0x00000000)
T434C 001:014.442 - 0.011ms returns 0
T434C 001:014.450 JLINK_WriteReg(R9, 0x2000017C)
T434C 001:014.458 - 0.011ms returns 0
T434C 001:014.466 JLINK_WriteReg(R10, 0x00000000)
T434C 001:014.474 - 0.011ms returns 0
T434C 001:014.482 JLINK_WriteReg(R11, 0x00000000)
T434C 001:014.490 - 0.011ms returns 0
T434C 001:014.497 JLINK_WriteReg(R12, 0x00000000)
T434C 001:014.505 - 0.011ms returns 0
T434C 001:014.513 JLINK_WriteReg(R13 (SP), 0x20001000)
T434C 001:014.521 - 0.011ms returns 0
T434C 001:014.529 JLINK_WriteReg(R14, 0x20000001)
T434C 001:014.536 - 0.011ms returns 0
T434C 001:014.545 JLINK_WriteReg(R15 (PC), 0x20000082)
T434C 001:014.552 - 0.011ms returns 0
T434C 001:014.560 JLINK_WriteReg(XPSR, 0x01000000)
T434C 001:014.568 - 0.011ms returns 0
T434C 001:014.576 JLINK_WriteReg(MSP, 0x20001000)
T434C 001:014.588 - 0.015ms returns 0
T434C 001:014.596 JLINK_WriteReg(PSP, 0x20001000)
T434C 001:014.647 - 0.055ms returns 0
T434C 001:014.656 JLINK_WriteReg(CFBP, 0x00000000)
T434C 001:014.663 - 0.011ms returns 0
T434C 001:014.672 JLINK_SetBPEx(Addr = 0x20000000, Type = 0xFFFFFFF2)
T434C 001:014.680 - 0.012ms returns 0x00000007
T434C 001:014.688 JLINK_Go()
T434C 001:014.702   CPU_ReadMem(4 bytes @ 0xE0001000)
T434C 001:017.727 - 3.050ms
T434C 001:017.764 JLINK_IsHalted()
T434C 001:037.879   CPU_ReadMem(2 bytes @ 0x20000000)
T434C 001:038.520 - 20.760ms returns TRUE
T434C 001:038.545 JLINK_ReadReg(R15 (PC))
T434C 001:038.556 - 0.014ms returns 0x20000000
T434C 001:038.566 JLINK_ClrBPEx(BPHandle = 0x00000007)
T434C 001:038.575 - 0.012ms returns 0x00
T434C 001:038.586 JLINK_ReadReg(R0)
T434C 001:038.594 - 0.011ms returns 0x00000000
T434C 001:094.041 JLINK_WriteMem(0x20000000, 0x180 Bytes, ...)
T434C 001:094.060   Data:  00 BE 0A E0 0D 78 2D 06 68 40 08 24 40 00 00 D3 ...
T434C 001:094.084   CPU_WriteMem(384 bytes @ 0x20000000)
T434C 001:100.271 - 6.253ms returns 0x180
T434C 001:100.355 JLINK_HasError()
T434C 001:100.367 JLINK_WriteReg(R0, 0x08000000)
T434C 001:100.379 - 0.015ms returns 0
T434C 001:100.388 JLINK_WriteReg(R1, 0x00B71B00)
T434C 001:100.396 - 0.011ms returns 0
T434C 001:100.404 JLINK_WriteReg(R2, 0x00000002)
T434C 001:100.411 - 0.011ms returns 0
T434C 001:100.419 JLINK_WriteReg(R3, 0x00000000)
T434C 001:100.427 - 0.011ms returns 0
T434C 001:100.434 JLINK_WriteReg(R4, 0x00000000)
T434C 001:100.442 - 0.011ms returns 0
T434C 001:100.450 JLINK_WriteReg(R5, 0x00000000)
T434C 001:100.457 - 0.011ms returns 0
T434C 001:100.466 JLINK_WriteReg(R6, 0x00000000)
T434C 001:100.473 - 0.011ms returns 0
T434C 001:100.481 JLINK_WriteReg(R7, 0x00000000)
T434C 001:100.489 - 0.011ms returns 0
T434C 001:100.497 JLINK_WriteReg(R8, 0x00000000)
T434C 001:100.504 - 0.011ms returns 0
T434C 001:100.512 JLINK_WriteReg(R9, 0x2000017C)
T434C 001:100.520 - 0.011ms returns 0
T434C 001:100.528 JLINK_WriteReg(R10, 0x00000000)
T434C 001:100.536 - 0.011ms returns 0
T434C 001:100.544 JLINK_WriteReg(R11, 0x00000000)
T434C 001:100.551 - 0.011ms returns 0
T434C 001:100.559 JLINK_WriteReg(R12, 0x00000000)
T434C 001:100.567 - 0.011ms returns 0
T434C 001:100.575 JLINK_WriteReg(R13 (SP), 0x20001000)
T434C 001:100.583 - 0.012ms returns 0
T434C 001:100.591 JLINK_WriteReg(R14, 0x20000001)
T434C 001:100.599 - 0.011ms returns 0
T434C 001:100.607 JLINK_WriteReg(R15 (PC), 0x20000054)
T434C 001:100.614 - 0.011ms returns 0
T434C 001:100.622 JLINK_WriteReg(XPSR, 0x01000000)
T434C 001:100.630 - 0.011ms returns 0
T434C 001:100.638 JLINK_WriteReg(MSP, 0x20001000)
T434C 001:100.646 - 0.011ms returns 0
T434C 001:100.653 JLINK_WriteReg(PSP, 0x20001000)
T434C 001:100.661 - 0.011ms returns 0
T434C 001:100.670 JLINK_WriteReg(CFBP, 0x00000000)
T434C 001:100.677 - 0.011ms returns 0
T434C 001:100.685 JLINK_SetBPEx(Addr = 0x20000000, Type = 0xFFFFFFF2)
T434C 001:100.698   CPU_ReadMem(2 bytes @ 0x20000000)
T434C 001:127.923 - 27.259ms returns 0x00000008
T434C 001:127.995 JLINK_Go()
T434C 001:128.010   CPU_WriteMem(2 bytes @ 0x20000000)
T434C 001:131.318   CPU_ReadMem(4 bytes @ 0xE0001000)
T434C 001:151.924 - 23.949ms
T434C 001:151.986 JLINK_IsHalted()
T434C 001:155.077   CPU_ReadMem(2 bytes @ 0x20000000)
T434C 001:155.508 - 3.536ms returns TRUE
T434C 001:155.558 JLINK_ReadReg(R15 (PC))
T434C 001:155.570 - 0.015ms returns 0x20000000
T434C 001:155.580 JLINK_ClrBPEx(BPHandle = 0x00000008)
T434C 001:155.589 - 0.021ms returns 0x00
T434C 001:155.608 JLINK_ReadReg(R0)
T434C 001:155.616 - 0.011ms returns 0x00000000
T434C 001:155.932 JLINK_WriteMem(0x20000180, 0x280 Bytes, ...)
T434C 001:155.947   Data:  B8 66 00 20 A1 01 00 08 91 39 00 08 41 37 00 08 ...
T434C 001:155.966   CPU_WriteMem(640 bytes @ 0x20000180)
T434C 001:166.677 - 10.762ms returns 0x280
T434C 001:166.733 JLINK_WriteMem(0x20000400, 0x180 Bytes, ...)
T434C 001:166.743   Data:  A0 42 F8 D0 1C B1 00 28 02 D0 6D 1C F1 E7 28 46 ...
T434C 001:166.764   CPU_WriteMem(384 bytes @ 0x20000400)
T434C 001:181.844 - 15.130ms returns 0x180
T434C 001:181.906 JLINK_HasError()
T434C 001:181.919 JLINK_WriteReg(R0, 0x08000000)
T434C 001:181.931 - 0.015ms returns 0
T434C 001:181.940 JLINK_WriteReg(R1, 0x00000400)
T434C 001:181.948 - 0.011ms returns 0
T434C 001:181.958 JLINK_WriteReg(R2, 0x20000180)
T434C 001:181.966 - 0.011ms returns 0
T434C 001:181.975 JLINK_WriteReg(R3, 0x00000000)
T434C 001:181.983 - 0.011ms returns 0
T434C 001:181.993 JLINK_WriteReg(R4, 0x00000000)
T434C 001:182.000 - 0.011ms returns 0
T434C 001:182.010 JLINK_WriteReg(R5, 0x00000000)
T434C 001:182.017 - 0.011ms returns 0
T434C 001:182.027 JLINK_WriteReg(R6, 0x00000000)
T434C 001:182.035 - 0.011ms returns 0
T434C 001:182.045 JLINK_WriteReg(R7, 0x00000000)
T434C 001:182.053 - 0.011ms returns 0
T434C 001:182.062 JLINK_WriteReg(R8, 0x00000000)
T434C 001:182.070 - 0.011ms returns 0
T434C 001:182.079 JLINK_WriteReg(R9, 0x2000017C)
T434C 001:182.087 - 0.011ms returns 0
T434C 001:182.097 JLINK_WriteReg(R10, 0x00000000)
T434C 001:182.105 - 0.011ms returns 0
T434C 001:182.114 JLINK_WriteReg(R11, 0x00000000)
T434C 001:182.122 - 0.011ms returns 0
T434C 001:182.131 JLINK_WriteReg(R12, 0x00000000)
T434C 001:182.139 - 0.011ms returns 0
T434C 001:182.149 JLINK_WriteReg(R13 (SP), 0x20001000)
T434C 001:182.157 - 0.012ms returns 0
T434C 001:182.167 JLINK_WriteReg(R14, 0x20000001)
T434C 001:182.175 - 0.011ms returns 0
T434C 001:182.184 JLINK_WriteReg(R15 (PC), 0x20000108)
T434C 001:182.192 - 0.011ms returns 0
T434C 001:182.202 JLINK_WriteReg(XPSR, 0x01000000)
T434C 001:182.209 - 0.011ms returns 0
T434C 001:182.219 JLINK_WriteReg(MSP, 0x20001000)
T434C 001:182.227 - 0.011ms returns 0
T434C 001:182.236 JLINK_WriteReg(PSP, 0x20001000)
T434C 001:182.244 - 0.011ms returns 0
T434C 001:182.254 JLINK_WriteReg(CFBP, 0x00000000)
T434C 001:182.261 - 0.011ms returns 0
T434C 001:182.271 JLINK_SetBPEx(Addr = 0x20000000, Type = 0xFFFFFFF2)
T434C 001:182.280 - 0.012ms returns 0x00000009
T434C 001:182.290 JLINK_Go()
T434C 001:182.304   CPU_ReadMem(4 bytes @ 0xE0001000)
T434C 001:219.584 - 37.318ms
T434C 001:219.648 JLINK_IsHalted()
T434C 001:223.579 - 3.944ms returns FALSE
T434C 001:223.628 JLINK_HasError()
T434C 001:236.524 JLINK_IsHalted()
T434C 001:243.610   CPU_ReadMem(2 bytes @ 0x20000000)
T434C 001:244.014 - 7.495ms returns TRUE
T434C 001:244.035 JLINK_ReadReg(R15 (PC))
T434C 001:244.046 - 0.014ms returns 0x20000000
T434C 001:244.055 JLINK_ClrBPEx(BPHandle = 0x00000009)
T434C 001:244.063 - 0.012ms returns 0x00
T434C 001:244.072 JLINK_ReadReg(R0)
T434C 001:244.080 - 0.011ms returns 0x00000000
T434C 001:244.462 JLINK_WriteMem(0x20000180, 0x280 Bytes, ...)
T434C 001:244.477   Data:  80 F8 00 80 06 E0 21 07 02 D5 A0 F8 00 80 01 E0 ...
T434C 001:244.495   CPU_WriteMem(640 bytes @ 0x20000180)
T434C 001:248.050 - 3.597ms returns 0x280
T434C 001:248.077 JLINK_WriteMem(0x20000400, 0x180 Bytes, ...)
T434C 001:248.086   Data:  88 47 82 46 00 2E 0C DD 2B 28 04 D0 BA F1 2D 0F ...
T434C 001:248.102   CPU_WriteMem(384 bytes @ 0x20000400)
T434C 001:266.424 - 18.360ms returns 0x180
T434C 001:266.482 JLINK_HasError()
T434C 001:266.496 JLINK_WriteReg(R0, 0x08000400)
T434C 001:266.508 - 0.016ms returns 0
T434C 001:266.519 JLINK_WriteReg(R1, 0x00000400)
T434C 001:266.527 - 0.012ms returns 0
T434C 001:266.538 JLINK_WriteReg(R2, 0x20000180)
T434C 001:266.546 - 0.011ms returns 0
T434C 001:266.556 JLINK_WriteReg(R3, 0x00000000)
T434C 001:266.564 - 0.012ms returns 0
T434C 001:266.574 JLINK_WriteReg(R4, 0x00000000)
T434C 001:266.582 - 0.011ms returns 0
T434C 001:266.592 JLINK_WriteReg(R5, 0x00000000)
T434C 001:266.601 - 0.012ms returns 0
T434C 001:266.609 JLINK_WriteReg(R6, 0x00000000)
T434C 001:266.617 - 0.011ms returns 0
T434C 001:266.625 JLINK_WriteReg(R7, 0x00000000)
T434C 001:266.633 - 0.011ms returns 0
T434C 001:266.641 JLINK_WriteReg(R8, 0x00000000)
T434C 001:266.649 - 0.011ms returns 0
T434C 001:266.657 JLINK_WriteReg(R9, 0x2000017C)
T434C 001:266.665 - 0.011ms returns 0
T434C 001:266.678 JLINK_WriteReg(R10, 0x00000000)
T434C 001:266.690 - 0.018ms returns 0
T434C 001:266.701 JLINK_WriteReg(R11, 0x00000000)
T434C 001:266.709 - 0.011ms returns 0
T434C 001:266.717 JLINK_WriteReg(R12, 0x00000000)
T434C 001:266.725 - 0.011ms returns 0
T434C 001:266.733 JLINK_WriteReg(R13 (SP), 0x20001000)
T434C 001:266.742 - 0.012ms returns 0
T434C 001:266.750 JLINK_WriteReg(R14, 0x20000001)
T434C 001:266.758 - 0.011ms returns 0
T434C 001:266.766 JLINK_WriteReg(R15 (PC), 0x20000108)
T434C 001:266.774 - 0.011ms returns 0
T434C 001:266.782 JLINK_WriteReg(XPSR, 0x01000000)
T434C 001:266.790 - 0.011ms returns 0
T434C 001:266.799 JLINK_WriteReg(MSP, 0x20001000)
T434C 001:266.807 - 0.011ms returns 0
T434C 001:266.815 JLINK_WriteReg(PSP, 0x20001000)
T434C 001:266.823 - 0.011ms returns 0
T434C 001:266.831 JLINK_WriteReg(CFBP, 0x00000000)
T434C 001:266.839 - 0.011ms returns 0
T434C 001:266.847 JLINK_SetBPEx(Addr = 0x20000000, Type = 0xFFFFFFF2)
T434C 001:266.856 - 0.012ms returns 0x0000000A
T434C 001:266.864 JLINK_Go()
T434C 001:266.879   CPU_ReadMem(4 bytes @ 0xE0001000)
T434C 001:297.485 - 30.643ms
T434C 001:297.544 JLINK_IsHalted()
T434C 001:319.687   CPU_ReadMem(2 bytes @ 0x20000000)
T434C 001:320.294 - 22.765ms returns TRUE
T434C 001:320.352 JLINK_ReadReg(R15 (PC))
T434C 001:320.364 - 0.016ms returns 0x20000000
T434C 001:320.372 JLINK_ClrBPEx(BPHandle = 0x0000000A)
T434C 001:320.381 - 0.011ms returns 0x00
T434C 001:320.389 JLINK_ReadReg(R0)
T434C 001:320.396 - 0.011ms returns 0x00000000
T434C 001:322.732 JLINK_WriteMem(0x20000180, 0x280 Bytes, ...)
T434C 001:322.752   Data:  06 46 0D 46 50 46 59 46 01 9A 00 F0 E0 F9 10 EB ...
T434C 001:322.771   CPU_WriteMem(640 bytes @ 0x20000180)
T434C 001:330.187 - 7.468ms returns 0x280
T434C 001:330.228 JLINK_WriteMem(0x20000400, 0x180 Bytes, ...)
T434C 001:330.238   Data:  00 43 02 E0 6F F0 01 02 53 10 1A EB 06 00 4C EB ...
T434C 001:330.256   CPU_WriteMem(384 bytes @ 0x20000400)
T434C 001:332.717 - 2.503ms returns 0x180
T434C 001:332.759 JLINK_HasError()
T434C 001:332.769 JLINK_WriteReg(R0, 0x08000800)
T434C 001:332.785 - 0.019ms returns 0
T434C 001:332.793 JLINK_WriteReg(R1, 0x00000400)
T434C 001:332.801 - 0.011ms returns 0
T434C 001:332.809 JLINK_WriteReg(R2, 0x20000180)
T434C 001:332.817 - 0.011ms returns 0
T434C 001:332.825 JLINK_WriteReg(R3, 0x00000000)
T434C 001:332.832 - 0.011ms returns 0
T434C 001:332.840 JLINK_WriteReg(R4, 0x00000000)
T434C 001:332.848 - 0.011ms returns 0
T434C 001:332.856 JLINK_WriteReg(R5, 0x00000000)
T434C 001:332.864 - 0.011ms returns 0
T434C 001:332.872 JLINK_WriteReg(R6, 0x00000000)
T434C 001:332.879 - 0.011ms returns 0
T434C 001:332.887 JLINK_WriteReg(R7, 0x00000000)
T434C 001:332.895 - 0.011ms returns 0
T434C 001:332.903 JLINK_WriteReg(R8, 0x00000000)
T434C 001:332.910 - 0.011ms returns 0
T434C 001:332.918 JLINK_WriteReg(R9, 0x2000017C)
T434C 001:332.926 - 0.011ms returns 0
T434C 001:332.934 JLINK_WriteReg(R10, 0x00000000)
T434C 001:332.941 - 0.011ms returns 0
T434C 001:332.949 JLINK_WriteReg(R11, 0x00000000)
T434C 001:332.957 - 0.011ms returns 0
T434C 001:332.965 JLINK_WriteReg(R12, 0x00000000)
T434C 001:332.972 - 0.011ms returns 0
T434C 001:332.980 JLINK_WriteReg(R13 (SP), 0x20001000)
T434C 001:332.988 - 0.011ms returns 0
T434C 001:332.996 JLINK_WriteReg(R14, 0x20000001)
T434C 001:333.004 - 0.011ms returns 0
T434C 001:333.012 JLINK_WriteReg(R15 (PC), 0x20000108)
T434C 001:333.020 - 0.011ms returns 0
T434C 001:333.028 JLINK_WriteReg(XPSR, 0x01000000)
T434C 001:333.036 - 0.011ms returns 0
T434C 001:333.043 JLINK_WriteReg(MSP, 0x20001000)
T434C 001:333.051 - 0.011ms returns 0
T434C 001:333.059 JLINK_WriteReg(PSP, 0x20001000)
T434C 001:333.066 - 0.011ms returns 0
T434C 001:333.074 JLINK_WriteReg(CFBP, 0x00000000)
T434C 001:333.082 - 0.011ms returns 0
T434C 001:333.090 JLINK_SetBPEx(Addr = 0x20000000, Type = 0xFFFFFFF2)
T434C 001:333.099 - 0.012ms returns 0x0000000B
T434C 001:333.107 JLINK_Go()
T434C 001:333.122   CPU_ReadMem(4 bytes @ 0xE0001000)
T434C 001:358.980 - 25.889ms
T434C 001:359.033 JLINK_IsHalted()
T434C 001:392.830   CPU_ReadMem(2 bytes @ 0x20000000)
T434C 001:393.466 - 34.447ms returns TRUE
T434C 001:393.518 JLINK_ReadReg(R15 (PC))
T434C 001:393.530 - 0.015ms returns 0x20000000
T434C 001:393.539 JLINK_ClrBPEx(BPHandle = 0x0000000B)
T434C 001:393.547 - 0.011ms returns 0x00
T434C 001:393.555 JLINK_ReadReg(R0)
T434C 001:393.562 - 0.011ms returns 0x00000000
T434C 001:393.954 JLINK_WriteMem(0x20000180, 0x280 Bytes, ...)
T434C 001:393.968   Data:  A2 F1 37 00 88 42 01 D3 4F F0 FF 30 70 47 00 00 ...
T434C 001:393.986   CPU_WriteMem(640 bytes @ 0x20000180)
T434C 001:418.728 - 24.790ms returns 0x280
T434C 001:418.792 JLINK_WriteMem(0x20000400, 0x180 Bytes, ...)
T434C 001:418.802   Data:  01 00 19 D0 C8 F1 40 02 50 46 00 F0 E7 F8 05 46 ...
T434C 001:418.823   CPU_WriteMem(384 bytes @ 0x20000400)
T434C 001:421.148 - 2.362ms returns 0x180
T434C 001:421.176 JLINK_HasError()
T434C 001:421.189 JLINK_WriteReg(R0, 0x08000C00)
T434C 001:421.200 - 0.014ms returns 0
T434C 001:421.210 JLINK_WriteReg(R1, 0x00000400)
T434C 001:421.219 - 0.012ms returns 0
T434C 001:421.233 JLINK_WriteReg(R2, 0x20000180)
T434C 001:421.241 - 0.012ms returns 0
T434C 001:421.251 JLINK_WriteReg(R3, 0x00000000)
T434C 001:421.259 - 0.011ms returns 0
T434C 001:421.269 JLINK_WriteReg(R4, 0x00000000)
T434C 001:421.277 - 0.011ms returns 0
T434C 001:421.286 JLINK_WriteReg(R5, 0x00000000)
T434C 001:421.294 - 0.011ms returns 0
T434C 001:421.304 JLINK_WriteReg(R6, 0x00000000)
T434C 001:421.312 - 0.011ms returns 0
T434C 001:421.321 JLINK_WriteReg(R7, 0x00000000)
T434C 001:421.329 - 0.011ms returns 0
T434C 001:421.339 JLINK_WriteReg(R8, 0x00000000)
T434C 001:421.347 - 0.011ms returns 0
T434C 001:421.356 JLINK_WriteReg(R9, 0x2000017C)
T434C 001:421.364 - 0.011ms returns 0
T434C 001:421.374 JLINK_WriteReg(R10, 0x00000000)
T434C 001:421.382 - 0.011ms returns 0
T434C 001:421.391 JLINK_WriteReg(R11, 0x00000000)
T434C 001:421.399 - 0.011ms returns 0
T434C 001:421.409 JLINK_WriteReg(R12, 0x00000000)
T434C 001:421.417 - 0.011ms returns 0
T434C 001:421.426 JLINK_WriteReg(R13 (SP), 0x20001000)
T434C 001:421.435 - 0.012ms returns 0
T434C 001:421.445 JLINK_WriteReg(R14, 0x20000001)
T434C 001:421.453 - 0.012ms returns 0
T434C 001:421.463 JLINK_WriteReg(R15 (PC), 0x20000108)
T434C 001:421.471 - 0.011ms returns 0
T434C 001:421.481 JLINK_WriteReg(XPSR, 0x01000000)
T434C 001:421.489 - 0.011ms returns 0
T434C 001:421.498 JLINK_WriteReg(MSP, 0x20001000)
T434C 001:421.506 - 0.011ms returns 0
T434C 001:421.516 JLINK_WriteReg(PSP, 0x20001000)
T434C 001:421.524 - 0.011ms returns 0
T434C 001:421.533 JLINK_WriteReg(CFBP, 0x00000000)
T434C 001:421.541 - 0.011ms returns 0
T434C 001:421.551 JLINK_SetBPEx(Addr = 0x20000000, Type = 0xFFFFFFF2)
T434C 001:421.560 - 0.013ms returns 0x0000000C
T434C 001:421.570 JLINK_Go()
T434C 001:421.584   CPU_ReadMem(4 bytes @ 0xE0001000)
T434C 001:424.567 - 3.003ms
T434C 001:424.588 JLINK_IsHalted()
T434C 001:425.022 - 0.438ms returns FALSE
T434C 001:425.043 JLINK_HasError()
T434C 001:435.551 JLINK_IsHalted()
T434C 001:483.290   CPU_ReadMem(2 bytes @ 0x20000000)
T434C 001:483.771 - 48.234ms returns TRUE
T434C 001:483.823 JLINK_ReadReg(R15 (PC))
T434C 001:483.835 - 0.015ms returns 0x20000000
T434C 001:483.846 JLINK_ClrBPEx(BPHandle = 0x0000000C)
T434C 001:483.854 - 0.012ms returns 0x00
T434C 001:483.864 JLINK_ReadReg(R0)
T434C 001:483.872 - 0.012ms returns 0x00000000
T434C 001:484.258 JLINK_WriteMem(0x20000180, 0x280 Bytes, ...)
T434C 001:484.271   Data:  82 42 30 BD 30 B5 04 1E 71 F1 00 04 04 DB 4F F0 ...
T434C 001:484.289   CPU_WriteMem(640 bytes @ 0x20000180)
T434C 001:487.848 - 3.604ms returns 0x280
T434C 001:487.966 JLINK_WriteMem(0x20000400, 0x180 Bytes, ...)
T434C 001:487.986   Data:  06 80 17 E7 A9 07 03 D5 F1 17 C0 E9 00 61 11 E7 ...
T434C 001:488.004   CPU_WriteMem(384 bytes @ 0x20000400)
T434C 001:491.535 - 3.583ms returns 0x180
T434C 001:491.580 JLINK_HasError()
T434C 001:491.590 JLINK_WriteReg(R0, 0x08001000)
T434C 001:491.601 - 0.014ms returns 0
T434C 001:491.609 JLINK_WriteReg(R1, 0x00000400)
T434C 001:491.621 - 0.016ms returns 0
T434C 001:491.630 JLINK_WriteReg(R2, 0x20000180)
T434C 001:491.637 - 0.011ms returns 0
T434C 001:491.645 JLINK_WriteReg(R3, 0x00000000)
T434C 001:491.653 - 0.011ms returns 0
T434C 001:491.662 JLINK_WriteReg(R4, 0x00000000)
T434C 001:491.669 - 0.011ms returns 0
T434C 001:491.677 JLINK_WriteReg(R5, 0x00000000)
T434C 001:491.689 - 0.015ms returns 0
T434C 001:491.697 JLINK_WriteReg(R6, 0x00000000)
T434C 001:491.705 - 0.011ms returns 0
T434C 001:491.713 JLINK_WriteReg(R7, 0x00000000)
T434C 001:491.721 - 0.011ms returns 0
T434C 001:491.729 JLINK_WriteReg(R8, 0x00000000)
T434C 001:491.737 - 0.011ms returns 0
T434C 001:491.745 JLINK_WriteReg(R9, 0x2000017C)
T434C 001:491.753 - 0.011ms returns 0
T434C 001:491.761 JLINK_WriteReg(R10, 0x00000000)
T434C 001:491.768 - 0.011ms returns 0
T434C 001:491.776 JLINK_WriteReg(R11, 0x00000000)
T434C 001:491.784 - 0.011ms returns 0
T434C 001:491.792 JLINK_WriteReg(R12, 0x00000000)
T434C 001:491.799 - 0.011ms returns 0
T434C 001:491.807 JLINK_WriteReg(R13 (SP), 0x20001000)
T434C 001:491.815 - 0.011ms returns 0
T434C 001:491.823 JLINK_WriteReg(R14, 0x20000001)
T434C 001:491.831 - 0.011ms returns 0
T434C 001:491.839 JLINK_WriteReg(R15 (PC), 0x20000108)
T434C 001:491.847 - 0.011ms returns 0
T434C 001:491.855 JLINK_WriteReg(XPSR, 0x01000000)
T434C 001:491.863 - 0.011ms returns 0
T434C 001:491.871 JLINK_WriteReg(MSP, 0x20001000)
T434C 001:491.879 - 0.011ms returns 0
T434C 001:491.887 JLINK_WriteReg(PSP, 0x20001000)
T434C 001:491.895 - 0.011ms returns 0
T434C 001:491.903 JLINK_WriteReg(CFBP, 0x00000000)
T434C 001:491.910 - 0.011ms returns 0
T434C 001:491.919 JLINK_SetBPEx(Addr = 0x20000000, Type = 0xFFFFFFF2)
T434C 001:491.927 - 0.012ms returns 0x0000000D
T434C 001:491.936 JLINK_Go()
T434C 001:491.949   CPU_ReadMem(4 bytes @ 0xE0001000)
T434C 001:495.266 - 3.341ms
